
Note: No compatibility mode selected!


Circuit: * ----------------------------------------------

Doing analysis at TEMP = 25.000000 and TNOM = 27.000000

Using SPARSE 1.3 as Direct Linear Solver

No. of Data Rows : 121
                * ----------------------------------------------
                DC transfer characteristic  Wed Nov 26 10:23:47  2025
--------------------------------------------------------------------------------
Index   v-sweep         v(g)            @m1[cgg]        @m1[cgs]        
--------------------------------------------------------------------------------
0	0.000000e+00	0.000000e+00	3.496688e-16	-4.59391e-19	
1	1.000000e-02	1.000000e-02	3.468490e-16	-4.55686e-19	
2	2.000000e-02	2.000000e-02	3.440942e-16	-4.52067e-19	
3	3.000000e-02	3.000000e-02	3.414020e-16	-4.48530e-19	
4	4.000000e-02	4.000000e-02	3.387703e-16	-4.45073e-19	
5	5.000000e-02	5.000000e-02	3.361969e-16	-4.41693e-19	
6	6.000000e-02	6.000000e-02	3.336798e-16	-4.38386e-19	
7	7.000000e-02	7.000000e-02	3.312171e-16	-4.35151e-19	
8	8.000000e-02	8.000000e-02	3.288068e-16	-4.31985e-19	
9	9.000000e-02	9.000000e-02	3.264472e-16	-4.28886e-19	
10	1.000000e-01	1.000000e-01	3.241367e-16	-4.25852e-19	
11	1.100000e-01	1.100000e-01	3.218736e-16	-4.22881e-19	
12	1.200000e-01	1.200000e-01	3.196563e-16	-4.19971e-19	
13	1.300000e-01	1.300000e-01	3.174834e-16	-4.17120e-19	
14	1.400000e-01	1.400000e-01	3.153535e-16	-4.14327e-19	
15	1.500000e-01	1.500000e-01	3.132652e-16	-4.11591e-19	
16	1.600000e-01	1.600000e-01	3.112172e-16	-4.08912e-19	
17	1.700000e-01	1.700000e-01	3.092083e-16	-4.06288e-19	
18	1.800000e-01	1.800000e-01	3.072373e-16	-4.03720e-19	
19	1.900000e-01	1.900000e-01	3.053030e-16	-4.01210e-19	
20	2.000000e-01	2.000000e-01	3.034044e-16	-3.98758e-19	
21	2.100000e-01	2.100000e-01	3.015403e-16	-3.96369e-19	
22	2.200000e-01	2.200000e-01	2.997099e-16	-3.94049e-19	
23	2.300000e-01	2.300000e-01	2.979121e-16	-3.91806e-19	
24	2.400000e-01	2.400000e-01	2.961460e-16	-3.89653e-19	
25	2.500000e-01	2.500000e-01	2.944107e-16	-3.87608e-19	
26	2.600000e-01	2.600000e-01	2.927055e-16	-3.85697e-19	
27	2.700000e-01	2.700000e-01	2.910295e-16	-3.83958e-19	
28	2.800000e-01	2.800000e-01	2.893820e-16	-3.82443e-19	
29	2.900000e-01	2.900000e-01	2.877623e-16	-3.81227e-19	
30	3.000000e-01	3.000000e-01	2.861698e-16	-3.80415e-19	
31	3.100000e-01	3.100000e-01	2.846041e-16	-3.80155e-19	
32	3.200000e-01	3.200000e-01	2.830646e-16	-3.80656e-19	
33	3.300000e-01	3.300000e-01	2.815511e-16	-3.82209e-19	
34	3.400000e-01	3.400000e-01	2.800634e-16	-3.85226e-19	
35	3.500000e-01	3.500000e-01	2.786017e-16	-3.90282e-19	
36	3.600000e-01	3.600000e-01	2.771665e-16	-3.98186e-19	
37	3.700000e-01	3.700000e-01	2.757585e-16	-4.10070e-19	
38	3.800000e-01	3.800000e-01	2.743792e-16	-4.27520e-19	
39	3.900000e-01	3.900000e-01	2.730311e-16	-4.52754e-19	
40	4.000000e-01	4.000000e-01	2.717174e-16	-4.88869e-19	
41	4.100000e-01	4.100000e-01	2.704432e-16	-5.40183e-19	
42	4.200000e-01	4.200000e-01	2.692158e-16	-6.12697e-19	
43	4.300000e-01	4.300000e-01	2.680455e-16	-7.14721e-19	
44	4.400000e-01	4.400000e-01	2.669466e-16	-8.57701e-19	
45	4.500000e-01	4.500000e-01	2.659392e-16	-1.05730e-18	
46	4.600000e-01	4.600000e-01	2.650508e-16	-1.33478e-18	
47	4.700000e-01	4.700000e-01	2.643190e-16	-1.71861e-18	
48	4.800000e-01	4.800000e-01	2.637946e-16	-2.24654e-18	
49	4.900000e-01	4.900000e-01	2.635449e-16	-2.96775e-18	
50	5.000000e-01	5.000000e-01	2.636588e-16	-3.94562e-18	
51	5.100000e-01	5.100000e-01	2.642526e-16	-5.26115e-18	
52	5.200000e-01	5.200000e-01	2.654781e-16	-7.01855e-18	
53	5.300000e-01	5.300000e-01	2.675359e-16	-9.35488e-18	
54	5.400000e-01	5.400000e-01	2.706956e-16	-1.24567e-17	

Index   v-sweep         v(g)            @m1[cgg]        @m1[cgs]        
--------------------------------------------------------------------------------
55	5.500000e-01	5.500000e-01	2.753254e-16	-1.65867e-17	
56	5.600000e-01	5.600000e-01	2.819334e-16	-2.21191e-17	
57	5.700000e-01	5.700000e-01	2.912133e-16	-2.95822e-17	
58	5.800000e-01	5.800000e-01	3.040884e-16	-3.96957e-17	
59	5.900000e-01	5.900000e-01	3.217321e-16	-5.33907e-17	
60	6.000000e-01	6.000000e-01	3.455410e-16	-7.17885e-17	
61	6.100000e-01	6.100000e-01	3.770253e-16	-9.61128e-17	
62	6.200000e-01	6.200000e-01	4.175824e-16	-1.27509e-16	
63	6.300000e-01	6.300000e-01	4.681442e-16	-1.66752e-16	
64	6.400000e-01	6.400000e-01	5.287429e-16	-2.13885e-16	
65	6.500000e-01	6.500000e-01	5.981343e-16	-2.67873e-16	
66	6.600000e-01	6.600000e-01	6.736848e-16	-3.26480e-16	
67	6.700000e-01	6.700000e-01	7.516903e-16	-3.86514e-16	
68	6.800000e-01	6.800000e-01	8.280899e-16	-4.44448e-16	
69	6.900000e-01	6.900000e-01	8.993063e-16	-4.97183e-16	
70	7.000000e-01	7.000000e-01	9.628630e-16	-5.42632e-16	
71	7.100000e-01	7.100000e-01	1.017585e-15	-5.79913e-16	
72	7.200000e-01	7.200000e-01	1.063425e-15	-6.09186e-16	
73	7.300000e-01	7.300000e-01	1.101102e-15	-6.31304e-16	
74	7.400000e-01	7.400000e-01	1.131723e-15	-6.47446e-16	
75	7.500000e-01	7.500000e-01	1.156505e-15	-6.58848e-16	
76	7.600000e-01	7.600000e-01	1.176594e-15	-6.66638e-16	
77	7.700000e-01	7.700000e-01	1.192984e-15	-6.71767e-16	
78	7.800000e-01	7.800000e-01	1.206495e-15	-6.74989e-16	
79	7.900000e-01	7.900000e-01	1.217775e-15	-6.76883e-16	
80	8.000000e-01	8.000000e-01	1.227332e-15	-6.77879e-16	
81	8.100000e-01	8.100000e-01	1.235551e-15	-6.78287e-16	
82	8.200000e-01	8.200000e-01	1.242728e-15	-6.78330e-16	
83	8.300000e-01	8.300000e-01	1.249083e-15	-6.78162e-16	
84	8.400000e-01	8.400000e-01	1.254783e-15	-6.77888e-16	
85	8.500000e-01	8.500000e-01	1.259957e-15	-6.77579e-16	
86	8.600000e-01	8.600000e-01	1.264700e-15	-6.77280e-16	
87	8.700000e-01	8.700000e-01	1.269084e-15	-6.77020e-16	
88	8.800000e-01	8.800000e-01	1.273167e-15	-6.76815e-16	
89	8.900000e-01	8.900000e-01	1.276993e-15	-6.76672e-16	
90	9.000000e-01	9.000000e-01	1.280595e-15	-6.76595e-16	
91	9.100000e-01	9.100000e-01	1.284002e-15	-6.76583e-16	
92	9.200000e-01	9.200000e-01	1.287235e-15	-6.76633e-16	
93	9.300000e-01	9.300000e-01	1.290312e-15	-6.76741e-16	
94	9.400000e-01	9.400000e-01	1.293249e-15	-6.76903e-16	
95	9.500000e-01	9.500000e-01	1.296057e-15	-6.77113e-16	
96	9.600000e-01	9.600000e-01	1.298749e-15	-6.77367e-16	
97	9.700000e-01	9.700000e-01	1.301332e-15	-6.77660e-16	
98	9.800000e-01	9.800000e-01	1.303815e-15	-6.77988e-16	
99	9.900000e-01	9.900000e-01	1.306205e-15	-6.78346e-16	
100	1.000000e+00	1.000000e+00	1.308509e-15	-6.78732e-16	
101	1.010000e+00	1.010000e+00	1.310731e-15	-6.79141e-16	
102	1.020000e+00	1.020000e+00	1.312877e-15	-6.79571e-16	
103	1.030000e+00	1.030000e+00	1.314951e-15	-6.80020e-16	
104	1.040000e+00	1.040000e+00	1.316958e-15	-6.80483e-16	
105	1.050000e+00	1.050000e+00	1.318901e-15	-6.80960e-16	
106	1.060000e+00	1.060000e+00	1.320784e-15	-6.81448e-16	
107	1.070000e+00	1.070000e+00	1.322611e-15	-6.81946e-16	
108	1.080000e+00	1.080000e+00	1.324383e-15	-6.82453e-16	
109	1.090000e+00	1.090000e+00	1.326104e-15	-6.82966e-16	
110	1.100000e+00	1.100000e+00	1.327777e-15	-6.83484e-16	
111	1.110000e+00	1.110000e+00	1.329403e-15	-6.84007e-16	
112	1.120000e+00	1.120000e+00	1.330985e-15	-6.84533e-16	

Index   v-sweep         v(g)            @m1[cgg]        @m1[cgs]        
--------------------------------------------------------------------------------
113	1.130000e+00	1.130000e+00	1.332526e-15	-6.85062e-16	
114	1.140000e+00	1.140000e+00	1.334026e-15	-6.85593e-16	
115	1.150000e+00	1.150000e+00	1.335488e-15	-6.86125e-16	
116	1.160000e+00	1.160000e+00	1.336913e-15	-6.86658e-16	
117	1.170000e+00	1.170000e+00	1.338304e-15	-6.87190e-16	
118	1.180000e+00	1.180000e+00	1.339661e-15	-6.87722e-16	
119	1.190000e+00	1.190000e+00	1.340986e-15	-6.88253e-16	
120	1.200000e+00	1.200000e+00	1.342280e-15	-6.88783e-16	

                * ----------------------------------------------
                DC transfer characteristic  Wed Nov 26 10:23:47  2025
--------------------------------------------------------------------------------
Index   v-sweep         @m1[cgd]        @m1[cgb]        
--------------------------------------------------------------------------------
0	0.000000e+00	-9.81232e-26	-3.49209e-16	
1	1.000000e-02	-1.37647e-25	-3.46393e-16	
2	2.000000e-02	-1.93089e-25	-3.43642e-16	
3	3.000000e-02	-2.70864e-25	-3.40953e-16	
4	4.000000e-02	-3.79967e-25	-3.38325e-16	
5	5.000000e-02	-5.33015e-25	-3.35755e-16	
6	6.000000e-02	-7.47710e-25	-3.33241e-16	
7	7.000000e-02	-1.04888e-24	-3.30782e-16	
8	8.000000e-02	-1.47137e-24	-3.28375e-16	
9	9.000000e-02	-2.06403e-24	-3.26018e-16	
10	1.000000e-01	-2.89542e-24	-3.23711e-16	
11	1.100000e-01	-4.06169e-24	-3.21451e-16	
12	1.200000e-01	-5.69773e-24	-3.19236e-16	
13	1.300000e-01	-7.99276e-24	-3.17066e-16	
14	1.400000e-01	-1.12122e-23	-3.14939e-16	
15	1.500000e-01	-1.57285e-23	-3.12854e-16	
16	1.600000e-01	-2.20640e-23	-3.10808e-16	
17	1.700000e-01	-3.09514e-23	-3.08802e-16	
18	1.800000e-01	-4.34186e-23	-3.06834e-16	
19	1.900000e-01	-6.09076e-23	-3.04902e-16	
20	2.000000e-01	-8.54413e-23	-3.03006e-16	
21	2.100000e-01	-1.19857e-22	-3.01144e-16	
22	2.200000e-01	-1.68136e-22	-2.99316e-16	
23	2.300000e-01	-2.35861e-22	-2.97520e-16	
24	2.400000e-01	-3.30867e-22	-2.95756e-16	
25	2.500000e-01	-4.64140e-22	-2.94023e-16	
26	2.600000e-01	-6.51096e-22	-2.92319e-16	
27	2.700000e-01	-9.13356e-22	-2.90645e-16	
28	2.800000e-01	-1.28125e-21	-2.88998e-16	
29	2.900000e-01	-1.79733e-21	-2.87379e-16	
30	3.000000e-01	-2.52128e-21	-2.85787e-16	
31	3.100000e-01	-3.53681e-21	-2.84220e-16	
32	3.200000e-01	-4.96134e-21	-2.82679e-16	
33	3.300000e-01	-6.95958e-21	-2.81162e-16	
34	3.400000e-01	-9.76250e-21	-2.79668e-16	
35	3.500000e-01	-1.36940e-20	-2.78198e-16	
36	3.600000e-01	-1.92084e-20	-2.76749e-16	
37	3.700000e-01	-2.69423e-20	-2.75321e-16	
38	3.800000e-01	-3.77882e-20	-2.73914e-16	
39	3.900000e-01	-5.29965e-20	-2.72525e-16	
40	4.000000e-01	-7.43182e-20	-2.71154e-16	
41	4.100000e-01	-1.04204e-19	-2.69799e-16	
42	4.200000e-01	-1.46079e-19	-2.68457e-16	
43	4.300000e-01	-2.04729e-19	-2.67126e-16	
44	4.400000e-01	-2.86819e-19	-2.65802e-16	
45	4.500000e-01	-4.01621e-19	-2.64480e-16	
46	4.600000e-01	-5.61983e-19	-2.63154e-16	
47	4.700000e-01	-7.85636e-19	-2.61815e-16	
48	4.800000e-01	-1.09692e-18	-2.60451e-16	
49	4.900000e-01	-1.52903e-18	-2.59048e-16	
50	5.000000e-01	-2.12685e-18	-2.57586e-16	
51	5.100000e-01	-2.95067e-18	-2.56041e-16	
52	5.200000e-01	-4.08069e-18	-2.54379e-16	
53	5.300000e-01	-5.62299e-18	-2.52558e-16	
54	5.400000e-01	-7.71719e-18	-2.50522e-16	

Index   v-sweep         @m1[cgd]        @m1[cgb]        
--------------------------------------------------------------------------------
55	5.500000e-01	-1.05465e-17	-2.48192e-16	
56	5.600000e-01	-1.43505e-17	-2.45464e-16	
57	5.700000e-01	-1.94395e-17	-2.42192e-16	
58	5.800000e-01	-2.62084e-17	-2.38184e-16	
59	5.900000e-01	-3.51416e-17	-2.33200e-16	
60	6.000000e-01	-4.68004e-17	-2.26952e-16	
61	6.100000e-01	-6.17766e-17	-2.19136e-16	
62	6.200000e-01	-8.05994e-17	-2.09474e-16	
63	6.300000e-01	-1.03598e-16	-1.97793e-16	
64	6.400000e-01	-1.30748e-16	-1.84110e-16	
65	6.500000e-01	-1.61552e-16	-1.68710e-16	
66	6.600000e-01	-1.95043e-16	-1.52162e-16	
67	6.700000e-01	-2.29926e-16	-1.35251e-16	
68	6.800000e-01	-2.64823e-16	-1.18819e-16	
69	6.900000e-01	-2.98524e-16	-1.03599e-16	
70	7.000000e-01	-3.30147e-16	-9.00837e-17	
71	7.100000e-01	-3.59181e-16	-7.84915e-17	
72	7.200000e-01	-3.85431e-16	-6.88076e-17	
73	7.300000e-01	-4.08936e-16	-6.08619e-17	
74	7.400000e-01	-4.29870e-16	-5.44080e-17	
75	7.500000e-01	-4.48475e-16	-4.91823e-17	
76	7.600000e-01	-4.65017e-16	-4.49392e-17	
77	7.700000e-01	-4.79750e-16	-4.14674e-17	
78	7.800000e-01	-4.92911e-16	-3.85946e-17	
79	7.900000e-01	-5.04708e-16	-3.61843e-17	
80	8.000000e-01	-5.15322e-16	-3.41312e-17	
81	8.100000e-01	-5.24910e-16	-3.23547e-17	
82	8.200000e-01	-5.33604e-16	-3.07941e-17	
83	8.300000e-01	-5.41517e-16	-2.94036e-17	
84	8.400000e-01	-5.48747e-16	-2.81487e-17	
85	8.500000e-01	-5.55375e-16	-2.70034e-17	
86	8.600000e-01	-5.61471e-16	-2.59481e-17	
87	8.700000e-01	-5.67096e-16	-2.49678e-17	
88	8.800000e-01	-5.72302e-16	-2.40508e-17	
89	8.900000e-01	-5.77132e-16	-2.31883e-17	
90	9.000000e-01	-5.81627e-16	-2.23731e-17	
91	9.100000e-01	-5.85819e-16	-2.15996e-17	
92	9.200000e-01	-5.89738e-16	-2.08633e-17	
93	9.300000e-01	-5.93410e-16	-2.01605e-17	
94	9.400000e-01	-5.96858e-16	-1.94880e-17	
95	9.500000e-01	-6.00101e-16	-1.88433e-17	
96	9.600000e-01	-6.03158e-16	-1.82241e-17	
97	9.700000e-01	-6.06044e-16	-1.76286e-17	
98	9.800000e-01	-6.08773e-16	-1.70549e-17	
99	9.900000e-01	-6.11357e-16	-1.65017e-17	
100	1.000000e+00	-6.13809e-16	-1.59676e-17	
101	1.010000e+00	-6.16138e-16	-1.54514e-17	
102	1.020000e+00	-6.18353e-16	-1.49521e-17	
103	1.030000e+00	-6.20463e-16	-1.44686e-17	
104	1.040000e+00	-6.22475e-16	-1.40002e-17	
105	1.050000e+00	-6.24395e-16	-1.35459e-17	
106	1.060000e+00	-6.26231e-16	-1.31050e-17	
107	1.070000e+00	-6.27987e-16	-1.26769e-17	
108	1.080000e+00	-6.29670e-16	-1.22609e-17	
109	1.090000e+00	-6.31282e-16	-1.18564e-17	
110	1.100000e+00	-6.32830e-16	-1.14628e-17	
111	1.110000e+00	-6.34317e-16	-1.10797e-17	
112	1.120000e+00	-6.35746e-16	-1.07065e-17	

Index   v-sweep         @m1[cgd]        @m1[cgb]        
--------------------------------------------------------------------------------
113	1.130000e+00	-6.37121e-16	-1.03428e-17	
114	1.140000e+00	-6.38445e-16	-9.98822e-18	
115	1.150000e+00	-6.39720e-16	-9.64234e-18	
116	1.160000e+00	-6.40951e-16	-9.30478e-18	
117	1.170000e+00	-6.42138e-16	-8.97521e-18	
118	1.180000e+00	-6.43285e-16	-8.65329e-18	
119	1.190000e+00	-6.44394e-16	-8.33871e-18	
120	1.200000e+00	-6.45465e-16	-8.03120e-18	


Total analysis time (seconds) = 0.0087035

Total elapsed time (seconds) = 0.074 

Total DRAM available = 16083.055 MB.
DRAM currently available = 5246.684 MB.
Maximum ngspice program size =   18.496 MB.
Current ngspice program size =   18.496 MB.

